
T0DE0 000:073 SEGGER J-Link V4.68a Log File (0000ms, 0072ms total)
T0DE0 000:073 DLL Compiled: Apr 12 2013 13:26:50 (0000ms, 0072ms total)
T0DE0 000:073 Logging started @ 2017-09-20 11:36 (0000ms, 0072ms total)
T0DE0 000:073 JLINK_SetWarnOutHandler(...) (0000ms, 0072ms total)
T0DE0 000:073 JLINK_OpenEx(...)
Firmware: J-Link ARM V8 compiled Nov 25 2013 19:20:08
Hardware: V8.00
S/N: 56004148
Feature(s): RDI,FlashDL,FlashBP,JFlash,GDBFULL  returns O.K. (0028ms, 0100ms total)
T0DE0 000:101 JLINK_SetErrorOutHandler(...) (0000ms, 0100ms total)
T0DE0 000:101 JLINK_ExecCommand("ProjectFile = "C:\Users\luoliang.YANFA\Desktop\BARCO-DB2K-10S-2017.8.15-NTC-CAN\Project\JLinkSettings.ini"", ...)  returns 0x00 (0000ms, 0100ms total)
T0DE0 000:102 JLINK_ExecCommand("Device = STM32F207VE", ...)
                JLINK_AddMirrorAreaEx(Addr = 0x00000000, Size = 0x00000000) (0000ms, 0000ms total)
              Device "STM32F207VE" selected (512 KB flash, 64 KB RAM).  returns 0x00 (0004ms, 0104ms total)
T0DE0 000:106 JLINK_ExecCommand("DisableConnectionTimeout", ...)  returns 0x00 (0000ms, 0104ms total)
T0DE0 000:106 JLINK_GetHardwareVersion()  returns 0x13880 (0000ms, 0104ms total)
T0DE0 000:106 JLINK_GetDLLVersion()  returns 46801 (0000ms, 0104ms total)
T0DE0 000:106 JLINK_GetFirmwareString(...) (0000ms, 0104ms total)
T0DE0 000:113 JLINK_GetDLLVersion()  returns 46801 (0000ms, 0104ms total)
T0DE0 000:113 JLINK_GetCompileDateTime() (0000ms, 0104ms total)
T0DE0 000:115 JLINK_GetFirmwareString(...) (0000ms, 0104ms total)
T0DE0 000:117 JLINK_GetHardwareVersion()  returns 0x13880 (0000ms, 0104ms total)
T0DE0 000:125 JLINK_TIF_Select(JLINKARM_TIF_SWD)  returns 0x00 (0006ms, 0110ms total)
T0DE0 000:131 JLINK_SetSpeed(2000) (0001ms, 0111ms total)
T0DE0 000:132 JLINK_GetId() >0x108 TIF>Found SWD-DP with ID 0x2BA01477 >0x0D TIF> >0x28 TIF> >0x0D TIF> >0x28 TIF> >0x0D TIF> >0x21 TIF> >0x0D TIF> >0x28 TIF> >0x0D TIF> >0x28 TIF> >0x0D TIF> >0x28 TIF> >0x0D TIF> >0x21 TIF> >0x0D TIF> >0x21 TIF> >0x0D TIF> >0x28 TIF> >0x0D TIF> >0x21 TIF> >0x0D TIF> >0x21 TIF> >0x0D TIF> >0x28 TIF> >0x0D TIF> >0x21 TIF> >0x0D TIF> >0x21 TIF> >0x108 TIF>Found SWD-DP with ID 0x2BA01477 >0x0D TIF> >0x21 TIF> >0x0D TIF> >0x28 TIF> >0x0D TIF> >0x28 TIF> >0x0D TIF> >0x21 TIF>
 >0x0D TIF> >0x21 TIF> >0x0D TIF> >0x28 TIF> >0x0D TIF> >0x21 TIF> >0x0D TIF> >0x21 TIF> >0x0D TIF> >0x21 TIF> >0x0D TIF> >0x21 TIF> >0x0D TIF> >0x21 TIF> >0x0D TIF> >0x28 TIF> >0x0D TIF> >0x28 TIF> >0x0D TIF> >0x21 TIF> >0x0D TIF> >0x21 TIF> >0x0D TIF> >0x28 TIF> >0x0D TIF> >0x21 TIF> >0x0D TIF> >0x21 TIF> >0x0D TIF> >0x28 TIF> >0x0D TIF> >0x28 TIF> >0x0D TIF> >0x28 TIF> >0x0D TIF> >0x21 TIF> >0x0D TIF> >0x21 TIF> >0x0D TIF> >0x28 TIF> >0x0D TIF> >0x28 TIF> >0x0D TIF> >0x28 TIF> >0x0D TIF> >0x21 TIF>
 >0x0D TIF> >0x21 TIF> >0x0D TIF> >0x21 TIF>TPIU fitted.ETM fitted. >0x0D TIF> >0x28 TIF> >0x0D TIF> >0x21 TIF> >0x0D TIF> >0x21 TIF> >0x0D TIF> >0x28 TIF> >0x0D TIF> >0x21 TIF> >0x0D TIF> >0x21 TIF>FPUnit: 6 code (BP) slots and 2 literal slots >0x0D TIF> >0x28 TIF> >0x0D TIF> >0x21 TIF> >0x0D TIF> >0x21 TIF> >0x0D TIF> >0x28 TIF> >0x0D TIF> >0x21 TIF> >0x0D TIF> >0x21 TIF> >0x0D TIF> >0x28 TIF> >0x0D TIF> >0x21 TIF> >0x0D TIF> >0x21 TIF> >0x0D TIF> >0x28 TIF> >0x0D TIF> >0x21 TIF> >0x0D TIF> >0x21 TIF>
Found Cortex-M3 r2p0, Little endian. >0x0D TIF> >0x21 TIF>  returns 0x2BA01477 (0166ms, 0277ms total)
T0DE0 000:298 JLINK_GetDeviceFamily()  returns 3 (0000ms, 0277ms total)
T0DE0 000:302 JLINK_ReadMem (0xE00FFFF0, 0x0010 Bytes, ...) -- CPU is running -- CPU_ReadMem(16 bytes @ 0xE00FFFF0) -- Data:  0D 00 00 00 10 00 00 00 05 00 00 00 B1 00 00 00  returns 0x00 (0002ms, 0279ms total)
T0DE0 000:304 JLINK_ReadMem (0xE00FFFD0, 0x0020 Bytes, ...) -- CPU is running -- CPU_ReadMem(32 bytes @ 0xE00FFFD0) -- Data:  00 00 00 00 00 00 00 00 00 00 00 00 00 00 00 00 ...  returns 0x00 (0002ms, 0281ms total)
T0DE0 000:306 JLINK_ReadMem (0xE00FF000, 0x0018 Bytes, ...) -- CPU is running -- CPU_ReadMem(24 bytes @ 0xE00FF000) -- Data:  03 F0 F0 FF 03 20 F0 FF 03 30 F0 FF 03 10 F0 FF ...  returns 0x00 (0002ms, 0283ms total)
T0DE0 000:308 JLINK_ReadMemU32(0xE000ED00, 0x0001 Items, ...) -- CPU is running -- CPU_ReadMem(4 bytes @ 0xE000ED00) -- Data:  30 C2 2F 41  returns 0x01 (0001ms, 0284ms total)
T0DE0 000:309 JLINK_SetResetType(JLINKARM_RESET_TYPE_NORMAL)  returns JLINKARM_RESET_TYPE_NORMAL (0000ms, 0284ms total)
T0DE0 000:309 JLINK_Reset() -- CPU is running -- CPU_WriteMem(4 bytes @ 0xE000EDF0) -- CPU is running -- CPU_WriteMem(4 bytes @ 0xE000EDFC) >0x35 TIF> -- CPU is running -- CPU_WriteMem(4 bytes @ 0xE000ED0C) -- CPU is running -- CPU_ReadMem(4 bytes @ 0xE000EDF0) -- CPU is running -- CPU_ReadMem(4 bytes @ 0xE000EDF0) -- CPU is running -- CPU_WriteMem(4 bytes @ 0xE000EDF0) -- CPU is running -- CPU_WriteMem(4 bytes @ 0xE000EDFC) -- CPU is running -- CPU_ReadMem(4 bytes @ 0xE000EDF0)
 -- CPU_WriteMem(4 bytes @ 0xE0002000) (0025ms, 0309ms total)
T0DE0 000:334 JLINK_Halt()  returns 0x00 (0000ms, 0309ms total)
T0DE0 000:334 JLINK_IsHalted()  returns TRUE (0000ms, 0309ms total)
T0DE0 000:334 JLINK_ReadMemU32(0xE000EDF0, 0x0001 Items, ...) -- CPU_ReadMem(4 bytes @ 0xE000EDF0) -- Data:  03 00 03 00  returns 0x01 (0002ms, 0311ms total)
T0DE0 000:336 JLINK_WriteU32(0xE000EDF0, 0xA05F0003) -- CPU_WriteMem(4 bytes @ 0xE000EDF0)  returns 0x00 (0002ms, 0313ms total)
T0DE0 000:338 JLINK_WriteU32(0xE000EDFC, 0x01000000) -- CPU_WriteMem(4 bytes @ 0xE000EDFC)  returns 0x00 (0001ms, 0314ms total)
T0DE0 000:357 JLINK_GetHWStatus(...)  returns 0x00 (0002ms, 0316ms total)
T0DE0 000:369 JLINK_GetNumBPUnits(Type = 0xFFFFFF00)  returns 0x06 (0000ms, 0316ms total)
T0DE0 000:369 JLINK_GetNumBPUnits(Type = 0xF0)  returns 0x2000 (0000ms, 0316ms total)
T0DE0 000:369 JLINK_GetNumWPUnits()  returns 0x04 (0000ms, 0316ms total)
T0DE0 000:378 JLINK_GetSpeed()  returns 0x7D0 (0000ms, 0316ms total)
T0DE0 000:385 JLINK_ReadMemU32(0xE000E004, 0x0001 Items, ...) -- CPU_ReadMem(4 bytes @ 0xE000E004) -- Data:  02 00 00 00  returns 0x01 (0001ms, 0317ms total)
T0DE0 000:386 JLINK_ReadMemU32(0xE000E004, 0x0001 Items, ...) -- CPU_ReadMem(4 bytes @ 0xE000E004) -- Data:  02 00 00 00  returns 0x01 (0003ms, 0320ms total)
T0DE0 000:389 JLINK_WriteMem(0xE0001000, 0x001C Bytes, ...) -- Data:  01 00 00 00 00 00 00 00 00 00 00 00 00 00 00 00 ... -- CPU_WriteMem(28 bytes @ 0xE0001000)  returns 0x1C (0002ms, 0322ms total)
T0DE0 000:391 JLINK_ReadMem (0xE0001000, 0x001C Bytes, ...) -- CPU_ReadMem(28 bytes @ 0xE0001000) -- Data:  01 00 00 40 00 00 00 00 00 00 00 00 00 00 00 00 ...  returns 0x00 (0002ms, 0324ms total)
T0DE0 000:393 JLINK_Halt()  returns 0x00 (0000ms, 0324ms total)
T0DE0 000:393 JLINK_IsHalted()  returns TRUE (0000ms, 0324ms total)
T0DE0 000:394 JLINK_WriteMem(0x20000000, 0x0180 Bytes, ...) -- Data:  00 BE 0A E0 0D 78 2D 06 68 40 08 24 40 00 00 D3 ... -- CPU_WriteMem(384 bytes @ 0x20000000)  returns 0x180 (0005ms, 0329ms total)
T0DE0 000:399 JLINK_WriteReg(R0, 0x08000000)  returns 0x00 (0000ms, 0329ms total)
T0DE0 000:399 JLINK_WriteReg(R1, 0x007A1200)  returns 0x00 (0000ms, 0329ms total)
T0DE0 000:400 JLINK_WriteReg(R2, 0x00000001)  returns 0x00 (0000ms, 0330ms total)
T0DE0 000:400 JLINK_WriteReg(R3, 0x00000000)  returns 0x00 (0000ms, 0330ms total)
T0DE0 000:400 JLINK_WriteReg(R4, 0x00000000)  returns 0x00 (0000ms, 0330ms total)
T0DE0 000:400 JLINK_WriteReg(R5, 0x00000000)  returns 0x00 (0000ms, 0330ms total)
T0DE0 000:400 JLINK_WriteReg(R6, 0x00000000)  returns 0x00 (0000ms, 0330ms total)
T0DE0 000:400 JLINK_WriteReg(R7, 0x00000000)  returns 0x00 (0000ms, 0330ms total)
T0DE0 000:400 JLINK_WriteReg(R8, 0x00000000)  returns 0x00 (0000ms, 0330ms total)
T0DE0 000:400 JLINK_WriteReg(R9, 0x2000017C)  returns 0x00 (0000ms, 0330ms total)
T0DE0 000:400 JLINK_WriteReg(R10, 0x00000000)  returns 0x00 (0000ms, 0330ms total)
T0DE0 000:400 JLINK_WriteReg(R11, 0x00000000)  returns 0x00 (0000ms, 0330ms total)
T0DE0 000:400 JLINK_WriteReg(R12, 0x00000000)  returns 0x00 (0000ms, 0330ms total)
T0DE0 000:400 JLINK_WriteReg(R13, 0x20000800)  returns 0x00 (0000ms, 0330ms total)
T0DE0 000:400 JLINK_WriteReg(R14, 0x20000001)  returns 0x00 (0000ms, 0330ms total)
T0DE0 000:400 JLINK_WriteReg(R15, 0x20000054)  returns 0x00 (0000ms, 0330ms total)
T0DE0 000:400 JLINK_WriteReg(XPSR, 0x01000000)  returns 0x00 (0000ms, 0330ms total)
T0DE0 000:400 JLINK_WriteReg(MSP, 0x20000800)  returns 0x00 (0000ms, 0330ms total)
T0DE0 000:400 JLINK_WriteReg(PSP, 0x20000800)  returns 0x00 (0000ms, 0330ms total)
T0DE0 000:400 JLINK_WriteReg(CFBP, 0x00000000)  returns 0x00 (0000ms, 0330ms total)
T0DE0 000:400 JLINK_SetBPEx(Addr = 0x20000000, Type = 0xFFFFFFF2) -- CPU_ReadMem(2 bytes @ 0x20000000)  returns 0x00000001 (0001ms, 0331ms total)
T0DE0 000:401 JLINK_Go() -- CPU_WriteMem(2 bytes @ 0x20000000) -- CPU_WriteMem(4 bytes @ 0xE0002008) -- CPU_WriteMem(4 bytes @ 0xE000200C) -- CPU_WriteMem(4 bytes @ 0xE0002010) -- CPU_WriteMem(4 bytes @ 0xE0002014) -- CPU_WriteMem(4 bytes @ 0xE0002018) -- CPU_WriteMem(4 bytes @ 0xE000201C) (0013ms, 0344ms total)
T0DE0 000:414 JLINK_IsHalted() -- CPU_ReadMem(2 bytes @ 0x20000000)  returns TRUE (0005ms, 0349ms total)
T0DE0 000:419 JLINK_ReadReg(R15)  returns 0x20000000 (0000ms, 0344ms total)
T0DE0 000:419 JLINK_ClrBPEx(BPHandle = 0x00000001)  returns 0x00 (0000ms, 0344ms total)
T0DE0 000:419 JLINK_ReadReg(R0)  returns 0x00000000 (0000ms, 0344ms total)
T0DE0 000:420 JLINK_WriteReg(R0, 0x08000000)  returns 0x00 (0000ms, 0344ms total)
T0DE0 000:420 JLINK_WriteReg(R1, 0x00004000)  returns 0x00 (0000ms, 0344ms total)
T0DE0 000:420 JLINK_WriteReg(R2, 0x000000FF)  returns 0x00 (0000ms, 0344ms total)
T0DE0 000:420 JLINK_WriteReg(R3, 0x00000000)  returns 0x00 (0000ms, 0344ms total)
T0DE0 000:420 JLINK_WriteReg(R4, 0x00000000)  returns 0x00 (0000ms, 0344ms total)
T0DE0 000:420 JLINK_WriteReg(R5, 0x00000000)  returns 0x00 (0000ms, 0344ms total)
T0DE0 000:420 JLINK_WriteReg(R6, 0x00000000)  returns 0x00 (0000ms, 0344ms total)
T0DE0 000:420 JLINK_WriteReg(R7, 0x00000000)  returns 0x00 (0000ms, 0344ms total)
T0DE0 000:420 JLINK_WriteReg(R8, 0x00000000)  returns 0x00 (0000ms, 0344ms total)
T0DE0 000:420 JLINK_WriteReg(R9, 0x2000017C)  returns 0x00 (0000ms, 0344ms total)
T0DE0 000:420 JLINK_WriteReg(R10, 0x00000000)  returns 0x00 (0000ms, 0344ms total)
T0DE0 000:420 JLINK_WriteReg(R11, 0x00000000)  returns 0x00 (0000ms, 0344ms total)
T0DE0 000:420 JLINK_WriteReg(R12, 0x00000000)  returns 0x00 (0000ms, 0344ms total)
T0DE0 000:420 JLINK_WriteReg(R13, 0x20000800)  returns 0x00 (0000ms, 0344ms total)
T0DE0 000:420 JLINK_WriteReg(R14, 0x20000001)  returns 0x00 (0000ms, 0344ms total)
T0DE0 000:420 JLINK_WriteReg(R15, 0x20000020)  returns 0x00 (0000ms, 0344ms total)
T0DE0 000:420 JLINK_WriteReg(XPSR, 0x01000000)  returns 0x00 (0000ms, 0344ms total)
T0DE0 000:420 JLINK_WriteReg(MSP, 0x20000800)  returns 0x00 (0000ms, 0344ms total)
T0DE0 000:420 JLINK_WriteReg(PSP, 0x20000800)  returns 0x00 (0000ms, 0344ms total)
T0DE0 000:420 JLINK_WriteReg(CFBP, 0x00000000)  returns 0x00 (0000ms, 0344ms total)
T0DE0 000:420 JLINK_SetBPEx(Addr = 0x20000000, Type = 0xFFFFFFF2)  returns 0x00000002 (0001ms, 0345ms total)
T0DE0 000:421 JLINK_Go() (0004ms, 0349ms total)
T0DE0 000:425 JLINK_IsHalted() -- CPU_ReadMem(2 bytes @ 0x20000000)  returns TRUE (0007ms, 0356ms total)
T0DE0 000:432 JLINK_ReadReg(R15)  returns 0x20000000 (0000ms, 0349ms total)
T0DE0 000:432 JLINK_ClrBPEx(BPHandle = 0x00000002)  returns 0x00 (0000ms, 0349ms total)
T0DE0 000:432 JLINK_ReadReg(R0)  returns 0x00000001 (0000ms, 0349ms total)
T0DE0 000:432 JLINK_WriteReg(R0, 0x08000000)  returns 0x00 (0000ms, 0349ms total)
T0DE0 000:432 JLINK_WriteReg(R1, 0x00004000)  returns 0x00 (0000ms, 0349ms total)
T0DE0 000:432 JLINK_WriteReg(R2, 0x000000FF)  returns 0x00 (0000ms, 0349ms total)
T0DE0 000:432 JLINK_WriteReg(R3, 0x00000000)  returns 0x00 (0000ms, 0349ms total)
T0DE0 000:432 JLINK_WriteReg(R4, 0x00000000)  returns 0x00 (0000ms, 0349ms total)
T0DE0 000:432 JLINK_WriteReg(R5, 0x00000000)  returns 0x00 (0000ms, 0349ms total)
T0DE0 000:432 JLINK_WriteReg(R6, 0x00000000)  returns 0x00 (0000ms, 0349ms total)
T0DE0 000:432 JLINK_WriteReg(R7, 0x00000000)  returns 0x00 (0000ms, 0349ms total)
T0DE0 000:432 JLINK_WriteReg(R8, 0x00000000)  returns 0x00 (0000ms, 0349ms total)
T0DE0 000:432 JLINK_WriteReg(R9, 0x2000017C)  returns 0x00 (0000ms, 0349ms total)
T0DE0 000:432 JLINK_WriteReg(R10, 0x00000000)  returns 0x00 (0000ms, 0349ms total)
T0DE0 000:432 JLINK_WriteReg(R11, 0x00000000)  returns 0x00 (0000ms, 0349ms total)
T0DE0 000:432 JLINK_WriteReg(R12, 0x00000000)  returns 0x00 (0000ms, 0349ms total)
T0DE0 000:432 JLINK_WriteReg(R13, 0x20000800)  returns 0x00 (0000ms, 0349ms total)
T0DE0 000:432 JLINK_WriteReg(R14, 0x20000001)  returns 0x00 (0000ms, 0349ms total)
T0DE0 000:432 JLINK_WriteReg(R15, 0x200000BC)  returns 0x00 (0000ms, 0349ms total)
T0DE0 000:432 JLINK_WriteReg(XPSR, 0x01000000)  returns 0x00 (0000ms, 0349ms total)
T0DE0 000:432 JLINK_WriteReg(MSP, 0x20000800)  returns 0x00 (0000ms, 0349ms total)
T0DE0 000:432 JLINK_WriteReg(PSP, 0x20000800)  returns 0x00 (0000ms, 0349ms total)
T0DE0 000:432 JLINK_WriteReg(CFBP, 0x00000000)  returns 0x00 (0001ms, 0350ms total)
T0DE0 000:433 JLINK_SetBPEx(Addr = 0x20000000, Type = 0xFFFFFFF2)  returns 0x00000003 (0000ms, 0350ms total)
T0DE0 000:433 JLINK_Go() (0004ms, 0354ms total)
T0DE0 000:437 JLINK_IsHalted()  returns FALSE (0001ms, 0355ms total)
T0DE0 000:491 JLINK_IsHalted()  returns FALSE (0001ms, 0355ms total)
T0DE0 000:493 JLINK_IsHalted()  returns FALSE (0001ms, 0355ms total)
T0DE0 000:497 JLINK_IsHalted()  returns FALSE (0001ms, 0355ms total)
T0DE0 000:499 JLINK_IsHalted()  returns FALSE (0001ms, 0355ms total)
T0DE0 000:501 JLINK_IsHalted()  returns FALSE (0001ms, 0355ms total)
T0DE0 000:505 JLINK_IsHalted()  returns FALSE (0001ms, 0355ms total)
T0DE0 000:509 JLINK_IsHalted()  returns FALSE (0001ms, 0355ms total)
T0DE0 000:512 JLINK_IsHalted()  returns FALSE (0001ms, 0355ms total)
T0DE0 000:514 JLINK_IsHalted()  returns FALSE (0001ms, 0355ms total)
T0DE0 000:520 JLINK_IsHalted()  returns FALSE (0001ms, 0355ms total)
T0DE0 000:522 JLINK_IsHalted()  returns FALSE (0001ms, 0355ms total)
T0DE0 000:524 JLINK_IsHalted()  returns FALSE (0001ms, 0355ms total)
T0DE0 000:527 JLINK_IsHalted()  returns FALSE (0001ms, 0355ms total)
T0DE0 000:531 JLINK_IsHalted()  returns FALSE (0001ms, 0355ms total)
T0DE0 000:533 JLINK_IsHalted()  returns FALSE (0001ms, 0355ms total)
T0DE0 000:537 JLINK_IsHalted()  returns FALSE (0001ms, 0355ms total)
T0DE0 000:539 JLINK_IsHalted()  returns FALSE (0001ms, 0355ms total)
T0DE0 000:541 JLINK_IsHalted()  returns FALSE (0001ms, 0355ms total)
T0DE0 000:545 JLINK_IsHalted()  returns FALSE (0001ms, 0355ms total)
T0DE0 000:547 JLINK_IsHalted()  returns FALSE (0001ms, 0355ms total)
T0DE0 000:554 JLINK_IsHalted()  returns FALSE (0001ms, 0355ms total)
T0DE0 000:556 JLINK_IsHalted()  returns FALSE (0001ms, 0355ms total)
T0DE0 000:558 JLINK_IsHalted()  returns FALSE (0001ms, 0355ms total)
T0DE0 000:562 JLINK_IsHalted()  returns FALSE (0001ms, 0355ms total)
T0DE0 000:564 JLINK_IsHalted()  returns FALSE (0001ms, 0355ms total)
T0DE0 000:569 JLINK_IsHalted()  returns FALSE (0001ms, 0355ms total)
T0DE0 000:571 JLINK_IsHalted()  returns FALSE (0001ms, 0355ms total)
T0DE0 000:573 JLINK_IsHalted()  returns FALSE (0001ms, 0355ms total)
T0DE0 000:577 JLINK_IsHalted()  returns FALSE (0001ms, 0355ms total)
T0DE0 000:579 JLINK_IsHalted()  returns FALSE (0001ms, 0355ms total)
T0DE0 000:581 JLINK_IsHalted()  returns FALSE (0001ms, 0355ms total)
T0DE0 000:585 JLINK_IsHalted()  returns FALSE (0001ms, 0355ms total)
T0DE0 000:587 JLINK_IsHalted()  returns FALSE (0001ms, 0355ms total)
T0DE0 000:589 JLINK_IsHalted()  returns FALSE (0001ms, 0355ms total)
T0DE0 000:593 JLINK_IsHalted()  returns FALSE (0002ms, 0356ms total)
T0DE0 000:596 JLINK_IsHalted()  returns FALSE (0001ms, 0355ms total)
T0DE0 000:598 JLINK_IsHalted()  returns FALSE (0001ms, 0355ms total)
T0DE0 000:602 JLINK_IsHalted()  returns FALSE (0001ms, 0355ms total)
T0DE0 000:604 JLINK_IsHalted()  returns FALSE (0001ms, 0355ms total)
T0DE0 000:606 JLINK_IsHalted()  returns FALSE (0001ms, 0355ms total)
T0DE0 000:611 JLINK_IsHalted()  returns FALSE (0001ms, 0355ms total)
T0DE0 000:613 JLINK_IsHalted()  returns FALSE (0001ms, 0355ms total)
T0DE0 000:615 JLINK_IsHalted()  returns FALSE (0001ms, 0355ms total)
T0DE0 000:617 JLINK_IsHalted()  returns FALSE (0001ms, 0355ms total)
T0DE0 000:619 JLINK_IsHalted()  returns FALSE (0001ms, 0355ms total)
T0DE0 000:621 JLINK_IsHalted()  returns FALSE (0001ms, 0355ms total)
T0DE0 000:623 JLINK_IsHalted()  returns FALSE (0001ms, 0355ms total)
T0DE0 000:625 JLINK_IsHalted()  returns FALSE (0001ms, 0355ms total)
T0DE0 000:627 JLINK_IsHalted()  returns FALSE (0001ms, 0355ms total)
T0DE0 000:629 JLINK_IsHalted()  returns FALSE (0001ms, 0355ms total)
T0DE0 000:632 JLINK_IsHalted()  returns FALSE (0001ms, 0355ms total)
T0DE0 000:634 JLINK_IsHalted()  returns FALSE (0001ms, 0355ms total)
T0DE0 000:636 JLINK_IsHalted()  returns FALSE (0001ms, 0355ms total)
T0DE0 000:638 JLINK_IsHalted()  returns FALSE (0001ms, 0355ms total)
T0DE0 000:640 JLINK_IsHalted()  returns FALSE (0001ms, 0355ms total)
T0DE0 000:642 JLINK_IsHalted()  returns FALSE (0001ms, 0355ms total)
T0DE0 000:644 JLINK_IsHalted()  returns FALSE (0001ms, 0355ms total)
T0DE0 000:646 JLINK_IsHalted()  returns FALSE (0001ms, 0355ms total)
T0DE0 000:648 JLINK_IsHalted()  returns FALSE (0000ms, 0354ms total)
T0DE0 000:649 JLINK_IsHalted()  returns FALSE (0001ms, 0355ms total)
T0DE0 000:651 JLINK_IsHalted()  returns FALSE (0001ms, 0355ms total)
T0DE0 000:653 JLINK_IsHalted()  returns FALSE (0001ms, 0355ms total)
T0DE0 000:658 JLINK_IsHalted()  returns FALSE (0001ms, 0355ms total)
T0DE0 000:669 JLINK_IsHalted()  returns FALSE (0001ms, 0355ms total)
T0DE0 000:671 JLINK_IsHalted()  returns FALSE (0001ms, 0355ms total)
T0DE0 000:674 JLINK_IsHalted()  returns FALSE (0001ms, 0355ms total)
T0DE0 000:676 JLINK_IsHalted()  returns FALSE (0002ms, 0356ms total)
T0DE0 000:685 JLINK_IsHalted()  returns FALSE (0001ms, 0355ms total)
T0DE0 000:687 JLINK_IsHalted()  returns FALSE (0001ms, 0355ms total)
T0DE0 000:689 JLINK_IsHalted()  returns FALSE (0001ms, 0355ms total)
T0DE0 000:691 JLINK_IsHalted()  returns FALSE (0001ms, 0355ms total)
T0DE0 000:693 JLINK_IsHalted()  returns FALSE (0001ms, 0355ms total)
T0DE0 000:699 JLINK_IsHalted()  returns FALSE (0001ms, 0355ms total)
T0DE0 000:701 JLINK_IsHalted()  returns FALSE (0001ms, 0355ms total)
T0DE0 000:708 JLINK_IsHalted()  returns FALSE (0001ms, 0355ms total)
T0DE0 000:714 JLINK_IsHalted()  returns FALSE (0001ms, 0355ms total)
T0DE0 000:716 JLINK_IsHalted()  returns FALSE (0001ms, 0355ms total)
T0DE0 000:718 JLINK_IsHalted()  returns FALSE (0001ms, 0355ms total)
T0DE0 000:724 JLINK_IsHalted()  returns FALSE (0002ms, 0356ms total)
T0DE0 000:727 JLINK_IsHalted()  returns FALSE (0001ms, 0355ms total)
T0DE0 000:729 JLINK_IsHalted()  returns FALSE (0001ms, 0355ms total)
T0DE0 000:731 JLINK_IsHalted()  returns FALSE (0001ms, 0355ms total)
T0DE0 000:734 JLINK_IsHalted()  returns FALSE (0002ms, 0356ms total)
T0DE0 000:737 JLINK_IsHalted()  returns FALSE (0001ms, 0355ms total)
T0DE0 000:739 JLINK_IsHalted()  returns FALSE (0001ms, 0355ms total)
T0DE0 000:745 JLINK_IsHalted()  returns FALSE (0002ms, 0357ms total)
T0DE0 000:748 JLINK_IsHalted()  returns FALSE (0001ms, 0356ms total)
T0DE0 000:750 JLINK_IsHalted()  returns FALSE (0001ms, 0356ms total)
T0DE0 000:753 JLINK_IsHalted()  returns FALSE (0002ms, 0357ms total)
T0DE0 000:756 JLINK_IsHalted()  returns FALSE (0002ms, 0357ms total)
T0DE0 000:762 JLINK_IsHalted() -- CPU_ReadMem(2 bytes @ 0x20000000)  returns TRUE (0007ms, 0362ms total)
T0DE0 000:769 JLINK_ReadReg(R15)  returns 0x20000000 (0000ms, 0355ms total)
T0DE0 000:769 JLINK_ClrBPEx(BPHandle = 0x00000003)  returns 0x00 (0000ms, 0355ms total)
T0DE0 000:769 JLINK_ReadReg(R0)  returns 0x00000000 (0000ms, 0355ms total)
T0DE0 000:771 JLINK_WriteReg(R0, 0x08004000)  returns 0x00 (0000ms, 0355ms total)
T0DE0 000:771 JLINK_WriteReg(R1, 0x00004000)  returns 0x00 (0000ms, 0355ms total)
T0DE0 000:771 JLINK_WriteReg(R2, 0x000000FF)  returns 0x00 (0000ms, 0355ms total)
T0DE0 000:771 JLINK_WriteReg(R3, 0x00000000)  returns 0x00 (0000ms, 0355ms total)
T0DE0 000:771 JLINK_WriteReg(R4, 0x00000000)  returns 0x00 (0000ms, 0355ms total)
T0DE0 000:771 JLINK_WriteReg(R5, 0x00000000)  returns 0x00 (0000ms, 0355ms total)
T0DE0 000:771 JLINK_WriteReg(R6, 0x00000000)  returns 0x00 (0000ms, 0355ms total)
T0DE0 000:771 JLINK_WriteReg(R7, 0x00000000)  returns 0x00 (0000ms, 0355ms total)
T0DE0 000:771 JLINK_WriteReg(R8, 0x00000000)  returns 0x00 (0000ms, 0355ms total)
T0DE0 000:771 JLINK_WriteReg(R9, 0x2000017C)  returns 0x00 (0000ms, 0355ms total)
T0DE0 000:771 JLINK_WriteReg(R10, 0x00000000)  returns 0x00 (0000ms, 0355ms total)
T0DE0 000:771 JLINK_WriteReg(R11, 0x00000000)  returns 0x00 (0000ms, 0355ms total)
T0DE0 000:771 JLINK_WriteReg(R12, 0x00000000)  returns 0x00 (0000ms, 0355ms total)
T0DE0 000:771 JLINK_WriteReg(R13, 0x20000800)  returns 0x00 (0000ms, 0355ms total)
T0DE0 000:771 JLINK_WriteReg(R14, 0x20000001)  returns 0x00 (0000ms, 0355ms total)
T0DE0 000:771 JLINK_WriteReg(R15, 0x20000020)  returns 0x00 (0000ms, 0355ms total)
T0DE0 000:771 JLINK_WriteReg(XPSR, 0x01000000)  returns 0x00 (0000ms, 0355ms total)
T0DE0 000:771 JLINK_WriteReg(MSP, 0x20000800)  returns 0x00 (0000ms, 0355ms total)
T0DE0 000:771 JLINK_WriteReg(PSP, 0x20000800)  returns 0x00 (0000ms, 0355ms total)
T0DE0 000:771 JLINK_WriteReg(CFBP, 0x00000000)  returns 0x00 (0000ms, 0355ms total)
T0DE0 000:771 JLINK_SetBPEx(Addr = 0x20000000, Type = 0xFFFFFFF2)  returns 0x00000004 (0000ms, 0355ms total)
T0DE0 000:771 JLINK_Go() (0004ms, 0359ms total)
T0DE0 000:775 JLINK_IsHalted() -- CPU_ReadMem(2 bytes @ 0x20000000)  returns TRUE (0009ms, 0368ms total)
T0DE0 000:784 JLINK_ReadReg(R15)  returns 0x20000000 (0000ms, 0359ms total)
T0DE0 000:784 JLINK_ClrBPEx(BPHandle = 0x00000004)  returns 0x00 (0000ms, 0359ms total)
T0DE0 000:784 JLINK_ReadReg(R0)  returns 0x00000001 (0000ms, 0359ms total)
T0DE0 000:784 JLINK_WriteReg(R0, 0x08004000)  returns 0x00 (0000ms, 0359ms total)
T0DE0 000:784 JLINK_WriteReg(R1, 0x00004000)  returns 0x00 (0000ms, 0359ms total)
T0DE0 000:784 JLINK_WriteReg(R2, 0x000000FF)  returns 0x00 (0000ms, 0359ms total)
T0DE0 000:784 JLINK_WriteReg(R3, 0x00000000)  returns 0x00 (0000ms, 0359ms total)
T0DE0 000:784 JLINK_WriteReg(R4, 0x00000000)  returns 0x00 (0000ms, 0359ms total)
T0DE0 000:784 JLINK_WriteReg(R5, 0x00000000)  returns 0x00 (0000ms, 0359ms total)
T0DE0 000:784 JLINK_WriteReg(R6, 0x00000000)  returns 0x00 (0000ms, 0359ms total)
T0DE0 000:784 JLINK_WriteReg(R7, 0x00000000)  returns 0x00 (0000ms, 0359ms total)
T0DE0 000:784 JLINK_WriteReg(R8, 0x00000000)  returns 0x00 (0000ms, 0359ms total)
T0DE0 000:784 JLINK_WriteReg(R9, 0x2000017C)  returns 0x00 (0000ms, 0359ms total)
T0DE0 000:784 JLINK_WriteReg(R10, 0x00000000)  returns 0x00 (0000ms, 0359ms total)
T0DE0 000:784 JLINK_WriteReg(R11, 0x00000000)  returns 0x00 (0000ms, 0359ms total)
T0DE0 000:784 JLINK_WriteReg(R12, 0x00000000)  returns 0x00 (0000ms, 0359ms total)
T0DE0 000:784 JLINK_WriteReg(R13, 0x20000800)  returns 0x00 (0000ms, 0359ms total)
T0DE0 000:784 JLINK_WriteReg(R14, 0x20000001)  returns 0x00 (0000ms, 0359ms total)
T0DE0 000:784 JLINK_WriteReg(R15, 0x200000BC)  returns 0x00 (0000ms, 0359ms total)
T0DE0 000:785 JLINK_WriteReg(XPSR, 0x01000000)  returns 0x00 (0000ms, 0360ms total)
T0DE0 000:785 JLINK_WriteReg(MSP, 0x20000800)  returns 0x00 (0000ms, 0360ms total)
T0DE0 000:785 JLINK_WriteReg(PSP, 0x20000800)  returns 0x00 (0000ms, 0360ms total)
T0DE0 000:785 JLINK_WriteReg(CFBP, 0x00000000)  returns 0x00 (0000ms, 0360ms total)
T0DE0 000:785 JLINK_SetBPEx(Addr = 0x20000000, Type = 0xFFFFFFF2)  returns 0x00000005 (0000ms, 0360ms total)
T0DE0 000:785 JLINK_Go() (0004ms, 0364ms total)
T0DE0 000:789 JLINK_IsHalted()  returns FALSE (0002ms, 0366ms total)
T0DE0 000:813 JLINK_IsHalted()  returns FALSE (0002ms, 0366ms total)
T0DE0 000:819 JLINK_IsHalted()  returns FALSE (0001ms, 0365ms total)
T0DE0 000:821 JLINK_IsHalted()  returns FALSE (0001ms, 0365ms total)
T0DE0 000:823 JLINK_IsHalted()  returns FALSE (0001ms, 0365ms total)
T0DE0 000:826 JLINK_IsHalted()  returns FALSE (0001ms, 0365ms total)
T0DE0 000:828 JLINK_IsHalted()  returns FALSE (0001ms, 0365ms total)
T0DE0 000:839 JLINK_IsHalted()  returns FALSE (0001ms, 0365ms total)
T0DE0 000:841 JLINK_IsHalted()  returns FALSE (0001ms, 0365ms total)
T0DE0 000:843 JLINK_IsHalted()  returns FALSE (0001ms, 0365ms total)
T0DE0 000:850 JLINK_IsHalted()  returns FALSE (0001ms, 0365ms total)
T0DE0 000:853 JLINK_IsHalted()  returns FALSE (0001ms, 0365ms total)
T0DE0 000:857 JLINK_IsHalted()  returns FALSE (0001ms, 0365ms total)
T0DE0 000:859 JLINK_IsHalted()  returns FALSE (0002ms, 0366ms total)
T0DE0 000:862 JLINK_IsHalted()  returns FALSE (0001ms, 0365ms total)
T0DE0 000:864 JLINK_IsHalted()  returns FALSE (0001ms, 0365ms total)
T0DE0 000:866 JLINK_IsHalted()  returns FALSE (0001ms, 0365ms total)
T0DE0 000:868 JLINK_IsHalted()  returns FALSE (0001ms, 0365ms total)
T0DE0 000:870 JLINK_IsHalted()  returns FALSE (0001ms, 0365ms total)
T0DE0 000:872 JLINK_IsHalted()  returns FALSE (0001ms, 0365ms total)
T0DE0 000:874 JLINK_IsHalted()  returns FALSE (0000ms, 0364ms total)
T0DE0 000:879 JLINK_IsHalted()  returns FALSE (0001ms, 0365ms total)
T0DE0 000:881 JLINK_IsHalted()  returns FALSE (0001ms, 0365ms total)
T0DE0 000:883 JLINK_IsHalted()  returns FALSE (0001ms, 0365ms total)
T0DE0 000:885 JLINK_IsHalted()  returns FALSE (0001ms, 0365ms total)
T0DE0 000:887 JLINK_IsHalted()  returns FALSE (0001ms, 0365ms total)
T0DE0 000:889 JLINK_IsHalted()  returns FALSE (0001ms, 0365ms total)
T0DE0 000:893 JLINK_IsHalted()  returns FALSE (0001ms, 0365ms total)
T0DE0 000:895 JLINK_IsHalted()  returns FALSE (0001ms, 0365ms total)
T0DE0 000:897 JLINK_IsHalted()  returns FALSE (0001ms, 0365ms total)
T0DE0 000:899 JLINK_IsHalted()  returns FALSE (0001ms, 0365ms total)
T0DE0 000:901 JLINK_IsHalted()  returns FALSE (0001ms, 0365ms total)
T0DE0 000:903 JLINK_IsHalted()  returns FALSE (0001ms, 0365ms total)
T0DE0 000:905 JLINK_IsHalted()  returns FALSE (0001ms, 0365ms total)
T0DE0 000:909 JLINK_IsHalted()  returns FALSE (0001ms, 0365ms total)
T0DE0 000:912 JLINK_IsHalted()  returns FALSE (0001ms, 0365ms total)
T0DE0 000:914 JLINK_IsHalted()  returns FALSE (0001ms, 0365ms total)
T0DE0 000:916 JLINK_IsHalted()  returns FALSE (0001ms, 0365ms total)
T0DE0 000:918 JLINK_IsHalted()  returns FALSE (0001ms, 0365ms total)
T0DE0 000:922 JLINK_IsHalted()  returns FALSE (0001ms, 0365ms total)
T0DE0 000:924 JLINK_IsHalted()  returns FALSE (0001ms, 0365ms total)
T0DE0 000:926 JLINK_IsHalted()  returns FALSE (0001ms, 0365ms total)
T0DE0 000:930 JLINK_IsHalted()  returns FALSE (0001ms, 0365ms total)
T0DE0 000:932 JLINK_IsHalted()  returns FALSE (0001ms, 0365ms total)
T0DE0 000:937 JLINK_IsHalted()  returns FALSE (0001ms, 0365ms total)
T0DE0 000:939 JLINK_IsHalted()  returns FALSE (0001ms, 0365ms total)
T0DE0 000:945 JLINK_IsHalted()  returns FALSE (0001ms, 0365ms total)
T0DE0 000:947 JLINK_IsHalted()  returns FALSE (0002ms, 0366ms total)
T0DE0 000:950 JLINK_IsHalted()  returns FALSE (0001ms, 0365ms total)
T0DE0 000:954 JLINK_IsHalted()  returns FALSE (0001ms, 0365ms total)
T0DE0 000:961 JLINK_IsHalted()  returns FALSE (0001ms, 0365ms total)
T0DE0 000:963 JLINK_IsHalted()  returns FALSE (0001ms, 0365ms total)
T0DE0 000:966 JLINK_IsHalted()  returns FALSE (0001ms, 0365ms total)
T0DE0 000:971 JLINK_IsHalted()  returns FALSE (0001ms, 0365ms total)
T0DE0 000:973 JLINK_IsHalted()  returns FALSE (0001ms, 0365ms total)
T0DE0 000:978 JLINK_IsHalted()  returns FALSE (0001ms, 0365ms total)
T0DE0 000:980 JLINK_IsHalted()  returns FALSE (0001ms, 0365ms total)
T0DE0 000:985 JLINK_IsHalted()  returns FALSE (0002ms, 0366ms total)
T0DE0 000:988 JLINK_IsHalted()  returns FALSE (0001ms, 0365ms total)
T0DE0 000:996 JLINK_IsHalted()  returns FALSE (0002ms, 0366ms total)
T0DE0 001:003 JLINK_IsHalted()  returns FALSE (0004ms, 0368ms total)
T0DE0 001:010 JLINK_IsHalted()  returns FALSE (0002ms, 0366ms total)
T0DE0 001:013 JLINK_IsHalted()  returns FALSE (0002ms, 0366ms total)
T0DE0 001:019 JLINK_IsHalted()  returns FALSE (0001ms, 0365ms total)
T0DE0 001:021 JLINK_IsHalted()  returns FALSE (0001ms, 0365ms total)
T0DE0 001:026 JLINK_IsHalted()  returns FALSE (0001ms, 0365ms total)
T0DE0 001:028 JLINK_IsHalted()  returns FALSE (0000ms, 0364ms total)
T0DE0 001:029 JLINK_IsHalted()  returns FALSE (0001ms, 0365ms total)
T0DE0 001:036 JLINK_IsHalted()  returns FALSE (0001ms, 0365ms total)
T0DE0 001:038 JLINK_IsHalted()  returns FALSE (0001ms, 0365ms total)
T0DE0 001:043 JLINK_IsHalted()  returns FALSE (0002ms, 0366ms total)
T0DE0 001:046 JLINK_IsHalted()  returns FALSE (0001ms, 0365ms total)
T0DE0 001:051 JLINK_IsHalted()  returns FALSE (0001ms, 0365ms total)
T0DE0 001:058 JLINK_IsHalted()  returns FALSE (0001ms, 0365ms total)
T0DE0 001:060 JLINK_IsHalted()  returns FALSE (0002ms, 0366ms total)
T0DE0 001:067 JLINK_IsHalted()  returns FALSE (0001ms, 0365ms total)
T0DE0 001:069 JLINK_IsHalted()  returns FALSE (0002ms, 0366ms total)
T0DE0 001:074 JLINK_IsHalted()  returns FALSE (0002ms, 0366ms total)
T0DE0 001:077 JLINK_IsHalted()  returns FALSE (0002ms, 0366ms total)
T0DE0 001:082 JLINK_IsHalted()  returns FALSE (0001ms, 0365ms total)
T0DE0 001:084 JLINK_IsHalted()  returns FALSE (0002ms, 0366ms total)
T0DE0 001:087 JLINK_IsHalted()  returns FALSE (0001ms, 0365ms total)
T0DE0 001:092 JLINK_IsHalted()  returns FALSE (0002ms, 0366ms total)
T0DE0 001:099 JLINK_IsHalted()  returns FALSE (0001ms, 0365ms total)
T0DE0 001:101 JLINK_IsHalted()  returns FALSE (0002ms, 0366ms total)
T0DE0 001:104 JLINK_IsHalted()  returns FALSE (0002ms, 0366ms total)
T0DE0 001:107 JLINK_IsHalted()  returns FALSE (0001ms, 0365ms total)
T0DE0 001:109 JLINK_IsHalted()  returns FALSE (0001ms, 0365ms total)
T0DE0 001:112 JLINK_IsHalted()  returns FALSE (0002ms, 0366ms total)
T0DE0 001:117 JLINK_IsHalted()  returns FALSE (0001ms, 0365ms total)
T0DE0 001:119 JLINK_IsHalted()  returns FALSE (0002ms, 0366ms total)
T0DE0 001:122 JLINK_IsHalted()  returns FALSE (0002ms, 0366ms total)
T0DE0 001:125 JLINK_IsHalted()  returns FALSE (0001ms, 0365ms total)
T0DE0 001:127 JLINK_IsHalted()  returns FALSE (0001ms, 0365ms total)
T0DE0 001:129 JLINK_IsHalted()  returns FALSE (0001ms, 0365ms total)
T0DE0 001:132 JLINK_IsHalted()  returns FALSE (0002ms, 0366ms total)
T0DE0 001:135 JLINK_IsHalted()  returns FALSE (0002ms, 0366ms total)
T0DE0 001:138 JLINK_IsHalted()  returns FALSE (0001ms, 0365ms total)
T0DE0 001:140 JLINK_IsHalted()  returns FALSE (0001ms, 0365ms total)
T0DE0 001:142 JLINK_IsHalted()  returns FALSE (0001ms, 0365ms total)
T0DE0 001:144 JLINK_IsHalted()  returns FALSE (0001ms, 0365ms total)
T0DE0 001:146 JLINK_IsHalted() -- CPU_ReadMem(2 bytes @ 0x20000000)  returns TRUE (0007ms, 0371ms total)
T0DE0 001:153 JLINK_ReadReg(R15)  returns 0x20000000 (0000ms, 0364ms total)
T0DE0 001:153 JLINK_ClrBPEx(BPHandle = 0x00000005)  returns 0x00 (0000ms, 0364ms total)
T0DE0 001:153 JLINK_ReadReg(R0)  returns 0x00000000 (0000ms, 0364ms total)
T0DE0 001:154 JLINK_WriteReg(R0, 0x00000001)  returns 0x00 (0000ms, 0364ms total)
T0DE0 001:154 JLINK_WriteReg(R1, 0x00004000)  returns 0x00 (0000ms, 0364ms total)
T0DE0 001:154 JLINK_WriteReg(R2, 0x000000FF)  returns 0x00 (0000ms, 0364ms total)
T0DE0 001:154 JLINK_WriteReg(R3, 0x00000000)  returns 0x00 (0000ms, 0364ms total)
T0DE0 001:154 JLINK_WriteReg(R4, 0x00000000)  returns 0x00 (0000ms, 0364ms total)
T0DE0 001:154 JLINK_WriteReg(R5, 0x00000000)  returns 0x00 (0000ms, 0364ms total)
T0DE0 001:154 JLINK_WriteReg(R6, 0x00000000)  returns 0x00 (0000ms, 0364ms total)
T0DE0 001:154 JLINK_WriteReg(R7, 0x00000000)  returns 0x00 (0000ms, 0364ms total)
T0DE0 001:154 JLINK_WriteReg(R8, 0x00000000)  returns 0x00 (0000ms, 0364ms total)
T0DE0 001:154 JLINK_WriteReg(R9, 0x2000017C)  returns 0x00 (0000ms, 0364ms total)
T0DE0 001:154 JLINK_WriteReg(R10, 0x00000000)  returns 0x00 (0000ms, 0364ms total)
T0DE0 001:154 JLINK_WriteReg(R11, 0x00000000)  returns 0x00 (0000ms, 0364ms total)
T0DE0 001:154 JLINK_WriteReg(R12, 0x00000000)  returns 0x00 (0000ms, 0364ms total)
T0DE0 001:155 JLINK_WriteReg(R13, 0x20000800)  returns 0x00 (0000ms, 0364ms total)
T0DE0 001:155 JLINK_WriteReg(R14, 0x20000001)  returns 0x00 (0000ms, 0364ms total)
T0DE0 001:155 JLINK_WriteReg(R15, 0x20000082)  returns 0x00 (0000ms, 0364ms total)
T0DE0 001:155 JLINK_WriteReg(XPSR, 0x01000000)  returns 0x00 (0000ms, 0364ms total)
T0DE0 001:155 JLINK_WriteReg(MSP, 0x20000800)  returns 0x00 (0000ms, 0364ms total)
T0DE0 001:155 JLINK_WriteReg(PSP, 0x20000800)  returns 0x00 (0000ms, 0364ms total)
T0DE0 001:155 JLINK_WriteReg(CFBP, 0x00000000)  returns 0x00 (0000ms, 0364ms total)
T0DE0 001:155 JLINK_SetBPEx(Addr = 0x20000000, Type = 0xFFFFFFF2)  returns 0x00000006 (0000ms, 0364ms total)
T0DE0 001:155 JLINK_Go() (0004ms, 0368ms total)
T0DE0 001:159 JLINK_IsHalted() -- CPU_ReadMem(2 bytes @ 0x20000000)  returns TRUE (0008ms, 0376ms total)
T0DE0 001:167 JLINK_ReadReg(R15)  returns 0x20000000 (0000ms, 0368ms total)
T0DE0 001:167 JLINK_ClrBPEx(BPHandle = 0x00000006)  returns 0x00 (0000ms, 0368ms total)
T0DE0 001:167 JLINK_ReadReg(R0)  returns 0x00000000 (0000ms, 0368ms total)
T0DE0 001:228 JLINK_WriteMem(0x20000000, 0x0180 Bytes, ...) -- Data:  00 BE 0A E0 0D 78 2D 06 68 40 08 24 40 00 00 D3 ... -- CPU_WriteMem(384 bytes @ 0x20000000)  returns 0x180 (0006ms, 0374ms total)
T0DE0 001:234 JLINK_WriteReg(R0, 0x08000000)  returns 0x00 (0000ms, 0374ms total)
T0DE0 001:234 JLINK_WriteReg(R1, 0x007A1200)  returns 0x00 (0000ms, 0374ms total)
T0DE0 001:234 JLINK_WriteReg(R2, 0x00000002)  returns 0x00 (0000ms, 0374ms total)
T0DE0 001:234 JLINK_WriteReg(R3, 0x00000000)  returns 0x00 (0000ms, 0374ms total)
T0DE0 001:234 JLINK_WriteReg(R4, 0x00000000)  returns 0x00 (0000ms, 0374ms total)
T0DE0 001:234 JLINK_WriteReg(R5, 0x00000000)  returns 0x00 (0000ms, 0374ms total)
T0DE0 001:234 JLINK_WriteReg(R6, 0x00000000)  returns 0x00 (0000ms, 0374ms total)
T0DE0 001:234 JLINK_WriteReg(R7, 0x00000000)  returns 0x00 (0000ms, 0374ms total)
T0DE0 001:234 JLINK_WriteReg(R8, 0x00000000)  returns 0x00 (0000ms, 0374ms total)
T0DE0 001:234 JLINK_WriteReg(R9, 0x2000017C)  returns 0x00 (0000ms, 0374ms total)
T0DE0 001:234 JLINK_WriteReg(R10, 0x00000000)  returns 0x00 (0000ms, 0374ms total)
T0DE0 001:234 JLINK_WriteReg(R11, 0x00000000)  returns 0x00 (0000ms, 0374ms total)
T0DE0 001:234 JLINK_WriteReg(R12, 0x00000000)  returns 0x00 (0000ms, 0374ms total)
T0DE0 001:234 JLINK_WriteReg(R13, 0x20000800)  returns 0x00 (0000ms, 0374ms total)
T0DE0 001:234 JLINK_WriteReg(R14, 0x20000001)  returns 0x00 (0000ms, 0374ms total)
T0DE0 001:234 JLINK_WriteReg(R15, 0x20000054)  returns 0x00 (0000ms, 0374ms total)
T0DE0 001:234 JLINK_WriteReg(XPSR, 0x01000000)  returns 0x00 (0000ms, 0374ms total)
T0DE0 001:234 JLINK_WriteReg(MSP, 0x20000800)  returns 0x00 (0000ms, 0374ms total)
T0DE0 001:234 JLINK_WriteReg(PSP, 0x20000800)  returns 0x00 (0001ms, 0375ms total)
T0DE0 001:235 JLINK_WriteReg(CFBP, 0x00000000)  returns 0x00 (0000ms, 0375ms total)
T0DE0 001:235 JLINK_SetBPEx(Addr = 0x20000000, Type = 0xFFFFFFF2) -- CPU_ReadMem(2 bytes @ 0x20000000)  returns 0x00000007 (0002ms, 0377ms total)
T0DE0 001:237 JLINK_Go() -- CPU_WriteMem(2 bytes @ 0x20000000) (0006ms, 0383ms total)
T0DE0 001:243 JLINK_IsHalted() -- CPU_ReadMem(2 bytes @ 0x20000000)  returns TRUE (0007ms, 0390ms total)
T0DE0 001:250 JLINK_ReadReg(R15)  returns 0x20000000 (0000ms, 0383ms total)
T0DE0 001:250 JLINK_ClrBPEx(BPHandle = 0x00000007)  returns 0x00 (0000ms, 0383ms total)
T0DE0 001:250 JLINK_ReadReg(R0)  returns 0x00000000 (0000ms, 0383ms total)
T0DE0 001:251 JLINK_WriteMem(0x20000180, 0x0400 Bytes, ...) -- Data:  08 0B 00 20 65 25 00 08 E9 01 00 08 EB 01 00 08 ... -- CPU_WriteMem(1024 bytes @ 0x20000180)  returns 0x400 (0012ms, 0395ms total)
T0DE0 001:263 JLINK_WriteReg(R0, 0x08000000)  returns 0x00 (0000ms, 0395ms total)
T0DE0 001:263 JLINK_WriteReg(R1, 0x00000400)  returns 0x00 (0000ms, 0395ms total)
T0DE0 001:263 JLINK_WriteReg(R2, 0x20000180)  returns 0x00 (0000ms, 0395ms total)
T0DE0 001:263 JLINK_WriteReg(R3, 0x00000000)  returns 0x00 (0000ms, 0395ms total)
T0DE0 001:263 JLINK_WriteReg(R4, 0x00000000)  returns 0x00 (0000ms, 0395ms total)
T0DE0 001:263 JLINK_WriteReg(R5, 0x00000000)  returns 0x00 (0000ms, 0395ms total)
T0DE0 001:263 JLINK_WriteReg(R6, 0x00000000)  returns 0x00 (0000ms, 0395ms total)
T0DE0 001:263 JLINK_WriteReg(R7, 0x00000000)  returns 0x00 (0000ms, 0395ms total)
T0DE0 001:263 JLINK_WriteReg(R8, 0x00000000)  returns 0x00 (0000ms, 0395ms total)
T0DE0 001:263 JLINK_WriteReg(R9, 0x2000017C)  returns 0x00 (0000ms, 0395ms total)
T0DE0 001:264 JLINK_WriteReg(R10, 0x00000000)  returns 0x00 (0000ms, 0395ms total)
T0DE0 001:264 JLINK_WriteReg(R11, 0x00000000)  returns 0x00 (0000ms, 0395ms total)
T0DE0 001:264 JLINK_WriteReg(R12, 0x00000000)  returns 0x00 (0000ms, 0395ms total)
T0DE0 001:264 JLINK_WriteReg(R13, 0x20000800)  returns 0x00 (0000ms, 0395ms total)
T0DE0 001:264 JLINK_WriteReg(R14, 0x20000001)  returns 0x00 (0000ms, 0395ms total)
T0DE0 001:264 JLINK_WriteReg(R15, 0x20000108)  returns 0x00 (0000ms, 0395ms total)
T0DE0 001:264 JLINK_WriteReg(XPSR, 0x01000000)  returns 0x00 (0000ms, 0395ms total)
T0DE0 001:264 JLINK_WriteReg(MSP, 0x20000800)  returns 0x00 (0000ms, 0395ms total)
T0DE0 001:264 JLINK_WriteReg(PSP, 0x20000800)  returns 0x00 (0000ms, 0395ms total)
T0DE0 001:264 JLINK_WriteReg(CFBP, 0x00000000)  returns 0x00 (0000ms, 0395ms total)
T0DE0 001:264 JLINK_SetBPEx(Addr = 0x20000000, Type = 0xFFFFFFF2)  returns 0x00000008 (0000ms, 0395ms total)
T0DE0 001:264 JLINK_Go() (0004ms, 0399ms total)
T0DE0 001:268 JLINK_IsHalted()  returns FALSE (0002ms, 0401ms total)
T0DE0 001:291 JLINK_IsHalted() -- CPU_ReadMem(2 bytes @ 0x20000000)  returns TRUE (0007ms, 0406ms total)
T0DE0 001:298 JLINK_ReadReg(R15)  returns 0x20000000 (0000ms, 0399ms total)
T0DE0 001:298 JLINK_ClrBPEx(BPHandle = 0x00000008)  returns 0x00 (0000ms, 0399ms total)
T0DE0 001:298 JLINK_ReadReg(R0)  returns 0x00000000 (0000ms, 0399ms total)
T0DE0 001:299 JLINK_WriteMem(0x20000180, 0x0400 Bytes, ...) -- Data:  00 00 00 20 8D F8 01 00 8D F8 02 00 01 20 8D F8 ... -- CPU_WriteMem(1024 bytes @ 0x20000180)  returns 0x400 (0012ms, 0411ms total)
T0DE0 001:311 JLINK_WriteReg(R0, 0x08000400)  returns 0x00 (0000ms, 0411ms total)
T0DE0 001:311 JLINK_WriteReg(R1, 0x00000400)  returns 0x00 (0000ms, 0411ms total)
T0DE0 001:311 JLINK_WriteReg(R2, 0x20000180)  returns 0x00 (0000ms, 0411ms total)
T0DE0 001:311 JLINK_WriteReg(R3, 0x00000000)  returns 0x00 (0000ms, 0411ms total)
T0DE0 001:311 JLINK_WriteReg(R4, 0x00000000)  returns 0x00 (0000ms, 0411ms total)
T0DE0 001:311 JLINK_WriteReg(R5, 0x00000000)  returns 0x00 (0000ms, 0411ms total)
T0DE0 001:311 JLINK_WriteReg(R6, 0x00000000)  returns 0x00 (0000ms, 0411ms total)
T0DE0 001:311 JLINK_WriteReg(R7, 0x00000000)  returns 0x00 (0000ms, 0411ms total)
T0DE0 001:311 JLINK_WriteReg(R8, 0x00000000)  returns 0x00 (0000ms, 0411ms total)
T0DE0 001:311 JLINK_WriteReg(R9, 0x2000017C)  returns 0x00 (0000ms, 0411ms total)
T0DE0 001:311 JLINK_WriteReg(R10, 0x00000000)  returns 0x00 (0000ms, 0411ms total)
T0DE0 001:311 JLINK_WriteReg(R11, 0x00000000)  returns 0x00 (0000ms, 0411ms total)
T0DE0 001:311 JLINK_WriteReg(R12, 0x00000000)  returns 0x00 (0000ms, 0411ms total)
T0DE0 001:311 JLINK_WriteReg(R13, 0x20000800)  returns 0x00 (0001ms, 0412ms total)
T0DE0 001:312 JLINK_WriteReg(R14, 0x20000001)  returns 0x00 (0000ms, 0412ms total)
T0DE0 001:312 JLINK_WriteReg(R15, 0x20000108)  returns 0x00 (0000ms, 0412ms total)
T0DE0 001:312 JLINK_WriteReg(XPSR, 0x01000000)  returns 0x00 (0000ms, 0412ms total)
T0DE0 001:312 JLINK_WriteReg(MSP, 0x20000800)  returns 0x00 (0000ms, 0412ms total)
T0DE0 001:312 JLINK_WriteReg(PSP, 0x20000800)  returns 0x00 (0000ms, 0412ms total)
T0DE0 001:312 JLINK_WriteReg(CFBP, 0x00000000)  returns 0x00 (0000ms, 0412ms total)
T0DE0 001:312 JLINK_SetBPEx(Addr = 0x20000000, Type = 0xFFFFFFF2)  returns 0x00000009 (0000ms, 0412ms total)
T0DE0 001:312 JLINK_Go() (0003ms, 0415ms total)
T0DE0 001:315 JLINK_IsHalted()  returns FALSE (0002ms, 0417ms total)
T0DE0 001:327 JLINK_IsHalted() -- CPU_ReadMem(2 bytes @ 0x20000000)  returns TRUE (0007ms, 0422ms total)
T0DE0 001:334 JLINK_ReadReg(R15)  returns 0x20000000 (0000ms, 0415ms total)
T0DE0 001:334 JLINK_ClrBPEx(BPHandle = 0x00000009)  returns 0x00 (0000ms, 0415ms total)
T0DE0 001:334 JLINK_ReadReg(R0)  returns 0x00000000 (0000ms, 0415ms total)
T0DE0 001:335 JLINK_WriteMem(0x20000180, 0x0400 Bytes, ...) -- Data:  02 20 03 F0 EB FD 01 21 88 03 03 F0 2B FE 01 21 ... -- CPU_WriteMem(1024 bytes @ 0x20000180)  returns 0x400 (0012ms, 0427ms total)
T0DE0 001:347 JLINK_WriteReg(R0, 0x08000800)  returns 0x00 (0000ms, 0427ms total)
T0DE0 001:347 JLINK_WriteReg(R1, 0x00000400)  returns 0x00 (0000ms, 0427ms total)
T0DE0 001:347 JLINK_WriteReg(R2, 0x20000180)  returns 0x00 (0000ms, 0427ms total)
T0DE0 001:347 JLINK_WriteReg(R3, 0x00000000)  returns 0x00 (0000ms, 0427ms total)
T0DE0 001:347 JLINK_WriteReg(R4, 0x00000000)  returns 0x00 (0000ms, 0427ms total)
T0DE0 001:347 JLINK_WriteReg(R5, 0x00000000)  returns 0x00 (0000ms, 0427ms total)
T0DE0 001:347 JLINK_WriteReg(R6, 0x00000000)  returns 0x00 (0000ms, 0427ms total)
T0DE0 001:347 JLINK_WriteReg(R7, 0x00000000)  returns 0x00 (0000ms, 0427ms total)
T0DE0 001:347 JLINK_WriteReg(R8, 0x00000000)  returns 0x00 (0000ms, 0427ms total)
T0DE0 001:347 JLINK_WriteReg(R9, 0x2000017C)  returns 0x00 (0000ms, 0427ms total)
T0DE0 001:347 JLINK_WriteReg(R10, 0x00000000)  returns 0x00 (0000ms, 0427ms total)
T0DE0 001:347 JLINK_WriteReg(R11, 0x00000000)  returns 0x00 (0000ms, 0427ms total)
T0DE0 001:347 JLINK_WriteReg(R12, 0x00000000)  returns 0x00 (0000ms, 0427ms total)
T0DE0 001:347 JLINK_WriteReg(R13, 0x20000800)  returns 0x00 (0000ms, 0427ms total)
T0DE0 001:347 JLINK_WriteReg(R14, 0x20000001)  returns 0x00 (0000ms, 0427ms total)
T0DE0 001:347 JLINK_WriteReg(R15, 0x20000108)  returns 0x00 (0000ms, 0427ms total)
T0DE0 001:347 JLINK_WriteReg(XPSR, 0x01000000)  returns 0x00 (0000ms, 0427ms total)
T0DE0 001:347 JLINK_WriteReg(MSP, 0x20000800)  returns 0x00 (0000ms, 0427ms total)
T0DE0 001:347 JLINK_WriteReg(PSP, 0x20000800)  returns 0x00 (0000ms, 0427ms total)
T0DE0 001:347 JLINK_WriteReg(CFBP, 0x00000000)  returns 0x00 (0000ms, 0427ms total)
T0DE0 001:347 JLINK_SetBPEx(Addr = 0x20000000, Type = 0xFFFFFFF2)  returns 0x0000000A (0000ms, 0427ms total)
T0DE0 001:347 JLINK_Go() (0003ms, 0430ms total)
T0DE0 001:350 JLINK_IsHalted()  returns FALSE (0002ms, 0432ms total)
T0DE0 001:360 JLINK_IsHalted() -- CPU_ReadMem(2 bytes @ 0x20000000)  returns TRUE (0006ms, 0436ms total)
T0DE0 001:366 JLINK_ReadReg(R15)  returns 0x20000000 (0000ms, 0430ms total)
T0DE0 001:366 JLINK_ClrBPEx(BPHandle = 0x0000000A)  returns 0x00 (0000ms, 0430ms total)
T0DE0 001:366 JLINK_ReadReg(R0)  returns 0x00000000 (0000ms, 0430ms total)
T0DE0 001:367 JLINK_WriteMem(0x20000180, 0x0400 Bytes, ...) -- Data:  FF F7 C4 FE BD E8 F0 87 B0 48 00 78 00 28 F1 DC ... -- CPU_WriteMem(1024 bytes @ 0x20000180)  returns 0x400 (0011ms, 0441ms total)
T0DE0 001:378 JLINK_WriteReg(R0, 0x08000C00)  returns 0x00 (0000ms, 0441ms total)
T0DE0 001:378 JLINK_WriteReg(R1, 0x00000400)  returns 0x00 (0000ms, 0441ms total)
T0DE0 001:378 JLINK_WriteReg(R2, 0x20000180)  returns 0x00 (0000ms, 0441ms total)
T0DE0 001:378 JLINK_WriteReg(R3, 0x00000000)  returns 0x00 (0000ms, 0441ms total)
T0DE0 001:378 JLINK_WriteReg(R4, 0x00000000)  returns 0x00 (0000ms, 0441ms total)
T0DE0 001:378 JLINK_WriteReg(R5, 0x00000000)  returns 0x00 (0000ms, 0441ms total)
T0DE0 001:378 JLINK_WriteReg(R6, 0x00000000)  returns 0x00 (0000ms, 0441ms total)
T0DE0 001:378 JLINK_WriteReg(R7, 0x00000000)  returns 0x00 (0000ms, 0441ms total)
T0DE0 001:378 JLINK_WriteReg(R8, 0x00000000)  returns 0x00 (0000ms, 0441ms total)
T0DE0 001:378 JLINK_WriteReg(R9, 0x2000017C)  returns 0x00 (0000ms, 0441ms total)
T0DE0 001:378 JLINK_WriteReg(R10, 0x00000000)  returns 0x00 (0000ms, 0441ms total)
T0DE0 001:378 JLINK_WriteReg(R11, 0x00000000)  returns 0x00 (0000ms, 0441ms total)
T0DE0 001:378 JLINK_WriteReg(R12, 0x00000000)  returns 0x00 (0000ms, 0441ms total)
T0DE0 001:378 JLINK_WriteReg(R13, 0x20000800)  returns 0x00 (0000ms, 0441ms total)
T0DE0 001:378 JLINK_WriteReg(R14, 0x20000001)  returns 0x00 (0000ms, 0441ms total)
T0DE0 001:378 JLINK_WriteReg(R15, 0x20000108)  returns 0x00 (0000ms, 0441ms total)
T0DE0 001:378 JLINK_WriteReg(XPSR, 0x01000000)  returns 0x00 (0000ms, 0441ms total)
T0DE0 001:378 JLINK_WriteReg(MSP, 0x20000800)  returns 0x00 (0000ms, 0441ms total)
T0DE0 001:378 JLINK_WriteReg(PSP, 0x20000800)  returns 0x00 (0000ms, 0441ms total)
T0DE0 001:378 JLINK_WriteReg(CFBP, 0x00000000)  returns 0x00 (0000ms, 0441ms total)
T0DE0 001:378 JLINK_SetBPEx(Addr = 0x20000000, Type = 0xFFFFFFF2)  returns 0x0000000B (0001ms, 0442ms total)
T0DE0 001:379 JLINK_Go() (0003ms, 0445ms total)
T0DE0 001:382 JLINK_IsHalted()  returns FALSE (0001ms, 0446ms total)
T0DE0 001:386 JLINK_IsHalted() -- CPU_ReadMem(2 bytes @ 0x20000000)  returns TRUE (0007ms, 0452ms total)
T0DE0 001:393 JLINK_ReadReg(R15)  returns 0x20000000 (0000ms, 0445ms total)
T0DE0 001:393 JLINK_ClrBPEx(BPHandle = 0x0000000B)  returns 0x00 (0000ms, 0445ms total)
T0DE0 001:393 JLINK_ReadReg(R0)  returns 0x00000000 (0000ms, 0445ms total)
T0DE0 001:393 JLINK_WriteMem(0x20000180, 0x0400 Bytes, ...) -- Data:  40 11 09 90 40 02 0A 90 00 20 0B 90 01 20 0C 90 ... -- CPU_WriteMem(1024 bytes @ 0x20000180)  returns 0x400 (0012ms, 0457ms total)
T0DE0 001:405 JLINK_WriteReg(R0, 0x08001000)  returns 0x00 (0000ms, 0457ms total)
T0DE0 001:405 JLINK_WriteReg(R1, 0x00000400)  returns 0x00 (0000ms, 0457ms total)
T0DE0 001:405 JLINK_WriteReg(R2, 0x20000180)  returns 0x00 (0000ms, 0457ms total)
T0DE0 001:405 JLINK_WriteReg(R3, 0x00000000)  returns 0x00 (0000ms, 0457ms total)
T0DE0 001:405 JLINK_WriteReg(R4, 0x00000000)  returns 0x00 (0000ms, 0457ms total)
T0DE0 001:405 JLINK_WriteReg(R5, 0x00000000)  returns 0x00 (0000ms, 0457ms total)
T0DE0 001:405 JLINK_WriteReg(R6, 0x00000000)  returns 0x00 (0000ms, 0457ms total)
T0DE0 001:405 JLINK_WriteReg(R7, 0x00000000)  returns 0x00 (0000ms, 0457ms total)
T0DE0 001:405 JLINK_WriteReg(R8, 0x00000000)  returns 0x00 (0000ms, 0457ms total)
T0DE0 001:405 JLINK_WriteReg(R9, 0x2000017C)  returns 0x00 (0000ms, 0457ms total)
T0DE0 001:405 JLINK_WriteReg(R10, 0x00000000)  returns 0x00 (0000ms, 0457ms total)
T0DE0 001:405 JLINK_WriteReg(R11, 0x00000000)  returns 0x00 (0000ms, 0457ms total)
T0DE0 001:405 JLINK_WriteReg(R12, 0x00000000)  returns 0x00 (0000ms, 0457ms total)
T0DE0 001:405 JLINK_WriteReg(R13, 0x20000800)  returns 0x00 (0000ms, 0457ms total)
T0DE0 001:405 JLINK_WriteReg(R14, 0x20000001)  returns 0x00 (0000ms, 0457ms total)
T0DE0 001:405 JLINK_WriteReg(R15, 0x20000108)  returns 0x00 (0000ms, 0457ms total)
T0DE0 001:405 JLINK_WriteReg(XPSR, 0x01000000)  returns 0x00 (0000ms, 0457ms total)
T0DE0 001:405 JLINK_WriteReg(MSP, 0x20000800)  returns 0x00 (0000ms, 0457ms total)
T0DE0 001:405 JLINK_WriteReg(PSP, 0x20000800)  returns 0x00 (0000ms, 0457ms total)
T0DE0 001:405 JLINK_WriteReg(CFBP, 0x00000000)  returns 0x00 (0000ms, 0457ms total)
T0DE0 001:405 JLINK_SetBPEx(Addr = 0x20000000, Type = 0xFFFFFFF2)  returns 0x0000000C (0000ms, 0457ms total)
T0DE0 001:405 JLINK_Go() (0003ms, 0460ms total)
T0DE0 001:408 JLINK_IsHalted()  returns FALSE (0002ms, 0462ms total)
T0DE0 001:413 JLINK_IsHalted() -- CPU_ReadMem(2 bytes @ 0x20000000)  returns TRUE (0009ms, 0469ms total)
T0DE0 001:422 JLINK_ReadReg(R15)  returns 0x20000000 (0000ms, 0460ms total)
T0DE0 001:422 JLINK_ClrBPEx(BPHandle = 0x0000000C)  returns 0x00 (0000ms, 0460ms total)
T0DE0 001:422 JLINK_ReadReg(R0)  returns 0x00000000 (0000ms, 0460ms total)
T0DE0 001:422 JLINK_WriteMem(0x20000180, 0x0400 Bytes, ...) -- Data:  07 E0 81 49 08 68 41 1E 7F 4A 11 60 08 B9 00 20 ... -- CPU_WriteMem(1024 bytes @ 0x20000180)  returns 0x400 (0013ms, 0473ms total)
T0DE0 001:435 JLINK_WriteReg(R0, 0x08001400)  returns 0x00 (0000ms, 0473ms total)
T0DE0 001:435 JLINK_WriteReg(R1, 0x00000400)  returns 0x00 (0000ms, 0473ms total)
T0DE0 001:435 JLINK_WriteReg(R2, 0x20000180)  returns 0x00 (0000ms, 0473ms total)
T0DE0 001:435 JLINK_WriteReg(R3, 0x00000000)  returns 0x00 (0000ms, 0473ms total)
T0DE0 001:435 JLINK_WriteReg(R4, 0x00000000)  returns 0x00 (0000ms, 0473ms total)
T0DE0 001:435 JLINK_WriteReg(R5, 0x00000000)  returns 0x00 (0000ms, 0473ms total)
T0DE0 001:435 JLINK_WriteReg(R6, 0x00000000)  returns 0x00 (0000ms, 0473ms total)
T0DE0 001:435 JLINK_WriteReg(R7, 0x00000000)  returns 0x00 (0000ms, 0473ms total)
T0DE0 001:435 JLINK_WriteReg(R8, 0x00000000)  returns 0x00 (0000ms, 0473ms total)
T0DE0 001:435 JLINK_WriteReg(R9, 0x2000017C)  returns 0x00 (0000ms, 0473ms total)
T0DE0 001:435 JLINK_WriteReg(R10, 0x00000000)  returns 0x00 (0000ms, 0473ms total)
T0DE0 001:435 JLINK_WriteReg(R11, 0x00000000)  returns 0x00 (0000ms, 0473ms total)
T0DE0 001:435 JLINK_WriteReg(R12, 0x00000000)  returns 0x00 (0000ms, 0473ms total)
T0DE0 001:435 JLINK_WriteReg(R13, 0x20000800)  returns 0x00 (0000ms, 0473ms total)
T0DE0 001:435 JLINK_WriteReg(R14, 0x20000001)  returns 0x00 (0000ms, 0473ms total)
T0DE0 001:435 JLINK_WriteReg(R15, 0x20000108)  returns 0x00 (0000ms, 0473ms total)
T0DE0 001:435 JLINK_WriteReg(XPSR, 0x01000000)  returns 0x00 (0000ms, 0473ms total)
T0DE0 001:435 JLINK_WriteReg(MSP, 0x20000800)  returns 0x00 (0000ms, 0473ms total)
T0DE0 001:435 JLINK_WriteReg(PSP, 0x20000800)  returns 0x00 (0000ms, 0473ms total)
T0DE0 001:435 JLINK_WriteReg(CFBP, 0x00000000)  returns 0x00 (0000ms, 0473ms total)
T0DE0 001:435 JLINK_SetBPEx(Addr = 0x20000000, Type = 0xFFFFFFF2)  returns 0x0000000D (0000ms, 0473ms total)
T0DE0 001:435 JLINK_Go() (0003ms, 0476ms total)
